Time [s],Packet ID,MOSI,MISO
0.4102983000,0,0x53,
0.4103081200,0,0x5A,
0.4103191800,1,0x53,
0.4103290000,1,0xA5,
0.4143351000,2,0xE1,
0.4143449000,2,0x00,
0.4143559600,3,0xE2,
0.4143659600,3,0x00,
0.4143770200,4,0x27,
0.4143868400,4,0x70,
0.4143979000,5,0x3D,
0.4144077200,5,0x38,
0.4144187800,6,0x22,
0.4144287800,6,0x01,
0.4144396600,7,0x23,
0.4144494800,7,0x03,
0.4144603400,8,0x25,
0.4144701600,8,0x63,
0.4144810400,9,0x31,
0.4144908600,9,0x28,
0.4145027800,10,0x3F,
0.4145160800,10,0x0A,
0.4145295800,10,0x6D,
0.4145428800,10,0x67,
0.4145561600,10,0x9C,
0.4145696400,10,0x46,
0.4145824600,11,0x3A,
0.4145959400,11,0x45,
0.4146092400,11,0x21,
0.4146225200,11,0xEF,
0.4146358200,11,0x2C,
0.4146493200,11,0x5A,
0.4146628000,11,0x40,
0.4146756200,12,0x39,
0.4146889000,12,0x01,
0.4147015200,13,0x3E,
0.4147150000,13,0xF6,
0.4147285000,13,0x3F,
0.4147418000,13,0x5D,
0.4147544000,14,0x3B,
0.4147677000,14,0x0B,
0.4147810000,14,0xDF,
0.4147942800,14,0x02,
0.4148062000,15,0x3C,
0.4148162000,15,0x00,
0.4148272600,16,0x26,
0.4148372600,16,0x44,
0.4148483200,17,0x24,
0.4148583200,17,0x00,
0.4148693800,18,0x21,
0.4148791800,18,0x00,
0.4148916000,19,0x2A,
0.4149050800,19,0x96,
0.4149185600,19,0xA5,
0.4149318600,19,0x6D,
0.4149451600,19,0x4A,
0.4149586400,19,0x58,
0.4149719400,20,0x30,
0.4149854200,20,0x96,
0.4149989000,20,0xA5,
0.4150122000,20,0x6D,
0.4150255000,20,0x4A,
0.4150389800,20,0x58,
0.4150506600,21,0x0A,
0.4150603000,21,0x96,
0.4150728400,22,0x20,
0.4150828600,22,0x8F,
0.4150937200,23,0xFD,
0.4151035400,23,0x00,
0.4151157200,24,0x07,
0.4151251000,24,0x0E,
0.4151401400,25,0x07,
0.4151495200,25,0x0E,
0.4151645400,26,0x07,
0.4151739200,26,0x0E,
0.4151889600,27,0x07,
0.4151983400,27,0x0E,
0.4152133600,28,0x07,
0.4152227400,28,0x0E,
0.4152377800,29,0x07,
0.4152471600,29,0x0E,
0.4152622000,30,0x07,
0.4152715800,30,0x0E,
0.4152866000,31,0x07,
0.4152959800,31,0x0E,
0.4153110200,32,0x07,
0.4153204000,32,0x0E,
0.4153354400,33,0x07,
0.4153448200,33,0x0E,
0.4153598600,34,0x07,
0.4153692400,34,0x0E,
0.4153842800,35,0x07,
0.4153936600,35,0x0E,
0.4154087000,36,0x07,
0.4154180800,36,0x0E,
0.4154331200,37,0x07,
0.4154425000,37,0x0E,
0.4154575400,38,0x07,
0.4154669200,38,0x0E,
0.4154819600,39,0x07,
0.4154913400,39,0x0E,
0.4155063800,40,0x07,
0.4155157600,40,0x0E,
0.4155308000,41,0x07,
0.4155401800,41,0x0E,
0.4155552200,42,0x07,
0.4155646000,42,0x0E,
0.4155796200,43,0x07,
0.4155890000,43,0x0E,
0.4156040400,44,0x07,
0.4156134200,44,0x0E,
0.4156284600,45,0x07,
0.4156378400,45,0x0E,
0.4156528600,46,0x07,
0.4156622400,46,0x0E,
0.4156772800,47,0x07,
0.4156866600,47,0x0E,
0.4157017000,48,0x07,
0.4157110800,48,0x0E,
0.4157261200,49,0x07,
0.4157355000,49,0x0E,
0.4157505400,50,0x07,
0.4157599200,50,0x0E,
0.4157749600,51,0x07,
0.4157843600,51,0x0E,
0.4157994000,52,0x07,
0.4158087800,52,0x0E,
0.4158238200,53,0x07,
0.4158332000,53,0x0E,
0.4158482400,54,0x07,
0.4158576400,54,0x0E,
0.4158726600,55,0x07,
0.4158820400,55,0x0E,
0.4158970800,56,0x07,
0.4159064800,56,0x0E,
0.4159215200,57,0x07,
0.4159309000,57,0x0E,
0.4159459400,58,0x07,
0.4159553200,58,0x0E,
0.4159703600,59,0x07,
0.4159797400,59,0x0E,
0.4159947800,60,0x07,
0.4160041600,60,0x0E,
0.4160192000,61,0x07,
0.4160285800,61,0x0E,
0.4160436200,62,0x07,
0.4160530200,62,0x0E,
0.4160680600,63,0x07,
0.4160774400,63,0x0E,
0.4160924600,64,0x07,
0.4161018400,64,0x0E,
0.4161169000,65,0x07,
0.4161262800,65,0x0E,
0.4161413000,66,0x07,
0.4161507000,66,0x0E,
0.4161657400,67,0x07,
0.4161751200,67,0x0E,
0.4161901600,68,0x07,
0.4161995400,68,0x0E,
0.4162145800,69,0x07,
0.4162239800,69,0x0E,
0.4162390000,70,0x07,
0.4162484000,70,0x0E,
0.4162634400,71,0x07,
0.4162728200,71,0x0E,
0.4162878600,72,0x07,
0.4162972400,72,0x0E,
0.4163122800,73,0x07,
0.4163216600,73,0x0E,
0.4163366800,74,0x07,
0.4163460600,74,0x0E,
0.4163611000,75,0x07,
0.4163705000,75,0x0E,
0.4163855400,76,0x07,
0.4163949200,76,0x0E,
0.4164099600,77,0x07,
0.4164193400,77,0x0E,
0.4164343600,78,0x07,
0.4164437600,78,0x0E,
0.4164588000,79,0x07,
0.4164681800,79,0x0E,
0.4164832200,80,0x07,
0.4164925800,80,0x0E,
0.4165076200,81,0x07,
0.4165170000,81,0x0E,
0.4165320400,82,0x07,
0.4165414200,82,0x0E,
0.4165564600,83,0x07,
0.4165658400,83,0x0E,
0.4165808800,84,0x07,
0.4165902600,84,0x0E,
0.4166053000,85,0x07,
0.4166146800,85,0x0E,
0.4166297200,86,0x07,
0.4166391000,86,0x0E,
0.4166541200,87,0x07,
0.4166635000,87,0x0E,
0.4166785400,88,0x07,
0.4166879200,88,0x0E,
0.4167029600,89,0x07,
0.4167123400,89,0x0E,
0.4167273800,90,0x07,
0.4167367600,90,0x0E,
0.4167518000,91,0x07,
0.4167611800,91,0x0E,
0.4167762200,92,0x07,
0.4167856000,92,0x0E,
0.4168006400,93,0x07,
0.4168100200,93,0x0E,
0.4168250600,94,0x07,
0.4168344400,94,0x0E,
0.4168494800,95,0x07,
0.4168588600,95,0x0E,
0.4168739000,96,0x07,
0.4168832800,96,0x0E,
0.4168983200,97,0x07,
0.4169077200,97,0x0E,
0.4169227600,98,0x07,
0.4169321400,98,0x0E,
0.4169471600,99,0x07,
0.4169565400,99,0x0E,
0.4169715800,100,0x07,
0.4169809600,100,0x0E,
0.4169960000,101,0x07,
0.4170053800,101,0x0E,
0.4170204200,102,0x07,
0.4170298000,102,0x0E,
0.4170448400,103,0x07,
0.4170542200,103,0x0E,
0.4170692600,104,0x07,
0.4170786400,104,0x0E,
0.4170936800,105,0x07,
0.4171030600,105,0x0E,
0.4171181000,106,0x07,
0.4171274800,106,0x0E,
0.4171425200,107,0x07,
0.4171519000,107,0x0E,
0.4171669200,108,0x07,
0.4171763200,108,0x0E,
0.4171913400,109,0x07,
0.4172007200,109,0x0E,
0.4172157600,110,0x07,
0.4172251600,110,0x0E,
0.4172402000,111,0x07,
0.4172495800,111,0x0E,
0.4172646200,112,0x07,
0.4172740000,112,0x0E,
0.4172890400,113,0x07,
0.4172984200,113,0x0E,
0.4173134600,114,0x07,
0.4173228600,114,0x0E,
0.4173379000,115,0x07,
0.4173472800,115,0x0E,
0.4173623200,116,0x07,
0.4173717000,116,0x0E,
0.4173867200,117,0x07,
0.4173961000,117,0x0E,
0.4174111400,118,0x07,
0.4174205400,118,0x0E,
0.4174355800,119,0x07,
0.4174449600,119,0x0E,
0.4174599800,120,0x07,
0.4174693800,120,0x0E,
0.4174844000,121,0x07,
0.4174937800,121,0x0E,
0.4175088200,122,0x07,
0.4175182000,122,0x0E,
0.4175332400,123,0x07,
0.4175426200,123,0x0E,
0.4175576600,124,0x07,
0.4175670400,124,0x0E,
0.4175820600,125,0x07,
0.4175914400,125,0x0E,
0.4176064600,126,0x07,
0.4176158400,126,0x0E,
0.4176314400,127,0x07,
0.4176408000,127,0x0E,
0.4176558400,128,0x07,
0.4176652200,128,0x0E,
0.4176802600,129,0x07,
0.4176896400,129,0x0E,
0.4177046800,130,0x07,
0.4177140600,130,0x0E,
0.4177290800,131,0x07,
0.4177384600,131,0x0E,
0.4177534800,132,0x07,
0.4177628400,132,0x0E,
0.4177778800,133,0x07,
0.4177872600,133,0x0E,
0.4178023000,134,0x07,
0.4178116800,134,0x0E,
0.4178267200,135,0x07,
0.4178361000,135,0x0E,
0.4178511400,136,0x07,
0.4178605200,136,0x0E,
0.4178755400,137,0x07,
0.4178849200,137,0x0E,
0.4178999600,138,0x07,
0.4179093400,138,0x0E,
0.4179243800,139,0x07,
0.4179337600,139,0x0E,
0.4179488000,140,0x07,
0.4179581800,140,0x0E,
0.4179732200,141,0x07,
0.4179826000,141,0x0E,
0.4179976200,142,0x07,
0.4180070000,142,0x0E,
0.4180220400,143,0x07,
0.4180314200,143,0x0E,
0.4180464600,144,0x07,
0.4180558400,144,0x0E,
0.4180708800,145,0x07,
0.4180802800,145,0x0E,
0.4180953000,146,0x07,
0.4181046800,146,0x0E,
0.4181197200,147,0x07,
0.4181291000,147,0x0E,
0.4181441400,148,0x07,
0.4181535200,148,0x0E,
0.4181685400,149,0x07,
0.4181779200,149,0x0E,
0.4181929600,150,0x07,
0.4182023400,150,0x0E,
0.4182173600,151,0x07,
0.4182267400,151,0x0E,
0.4182417800,152,0x07,
0.4182511600,152,0x0E,
0.4182662000,153,0x07,
0.4182755800,153,0x0E,
0.4182906000,154,0x07,
0.4182999800,154,0x0E,
0.4183150200,155,0x07,
0.4183244000,155,0x0E,
0.4183394400,156,0x07,
0.4183488200,156,0x0E,
0.4183638400,157,0x07,
0.4183732200,157,0x0E,
0.4183882600,158,0x07,
0.4183976400,158,0x0E,
0.4184126800,159,0x07,
0.4184220400,159,0x0E,
0.4184370800,160,0x07,
0.4184464600,160,0x0E,
0.4184615000,161,0x07,
0.4184708600,161,0x0E,
0.4184859000,162,0x07,
0.4184952800,162,0x0E,
0.4185103200,163,0x07,
0.4185197000,163,0x0E,
0.4185347400,164,0x07,
0.4185441200,164,0x0E,
0.4185591600,165,0x07,
0.4185685400,165,0x0E,
0.4185835800,166,0x07,
0.4185929600,166,0x0E,
0.4186080000,167,0x07,
0.4186174000,167,0x0E,
0.4186324400,168,0x07,
0.4186418200,168,0x0E,
0.4186568600,169,0x07,
0.4186662400,169,0x0E,
0.4186812800,170,0x07,
0.4186906600,170,0x0E,
0.4187057000,171,0x07,
0.4187150600,171,0x0E,
0.4187301000,172,0x07,
0.4187394800,172,0x0E,
0.4187545200,173,0x07,
0.4187639000,173,0x0E,
0.4187789400,174,0x07,
0.4187883200,174,0x0E,
0.4188033400,175,0x07,
0.4188127400,175,0x0E,
0.4188277600,176,0x07,
0.4188371400,176,0x0E,
0.4188521800,177,0x07,
0.4188615600,177,0x0E,
0.4188766000,178,0x07,
0.4188859800,178,0x0E,
0.4189010200,179,0x07,
0.4189104000,179,0x0E,
0.4189254400,180,0x07,
0.4189348400,180,0x0E,
0.4189498800,181,0x07,
0.4189592600,181,0x0E,
0.4189743000,182,0x07,
0.4189836800,182,0x0E,
0.4189987200,183,0x07,
0.4190081000,183,0x0E,
0.4190231200,184,0x07,
0.4190325000,184,0x0E,
0.4190475400,185,0x07,
0.4190569400,185,0x0E,
0.4190719800,186,0x07,
0.4190813600,186,0x0E,
0.4190964000,187,0x07,
0.4191057800,187,0x0E,
0.4191208200,188,0x07,
0.4191302000,188,0x0E,
0.4191452400,189,0x07,
0.4191546200,189,0x0E,
0.4191696600,190,0x07,
0.4191790400,190,0x0E,
0.4191940800,191,0x07,
0.4192034600,191,0x0E,
0.4192185000,192,0x07,
0.4192278800,192,0x0E,
0.4192429200,193,0x07,
0.4192523000,193,0x0E,
0.4192673400,194,0x07,
0.4192767200,194,0x0E,
0.4192917600,195,0x07,
0.4193011400,195,0x0E,
0.4193161800,196,0x07,
0.4193255600,196,0x0E,
0.4193406000,197,0x07,
0.4193499800,197,0x0E,
0.4193650200,198,0x07,
0.4193744000,198,0x0E,
0.4193894400,199,0x07,
0.4193988200,199,0x0E,
0.4194138600,200,0x07,
0.4194232400,200,0x0E,
0.4194383000,201,0x07,
0.4194476800,201,0x0E,
0.4194627000,202,0x07,
0.4194720800,202,0x0E,
0.4194871200,203,0x07,
0.4194965000,203,0x0E,
0.4195115400,204,0x07,
0.4195209200,204,0x0E,
0.4195359800,205,0x07,
0.4195453600,205,0x0E,
0.4195604000,206,0x07,
0.4195697800,206,0x0E,
0.4195848200,207,0x07,
0.4195941800,207,0x0E,
0.4196092200,208,0x07,
0.4196186200,208,0x0E,
0.4196336400,209,0x07,
0.4196430200,209,0x0E,
0.4196580600,210,0x07,
0.4196674400,210,0x0E,
0.4196824800,211,0x07,
0.4196918600,211,0x0E,
0.4197069000,212,0x07,
0.4197162800,212,0x0E,
0.4197313200,213,0x07,
0.4197407000,213,0x0E,
0.4197557400,214,0x07,
0.4197651400,214,0x0E,
0.4197801600,215,0x07,
0.4197895400,215,0x0E,
0.4198045800,216,0x07,
0.4198139600,216,0x0E,
0.4198290000,217,0x07,
0.4198383800,217,0x0E,
0.4198534200,218,0x07,
0.4198628000,218,0x0E,
0.4198778400,219,0x07,
0.4198872200,219,0x0E,
0.4199022600,220,0x07,
0.4199116400,220,0x0E,
0.4199266600,221,0x07,
0.4199360400,221,0x0E,
0.4199510800,222,0x07,
0.4199604600,222,0x0E,
0.4199754800,223,0x07,
0.4199848600,223,0x0E,
0.4199998800,224,0x07,
0.4200092600,224,0x0E,
0.4200243000,225,0x07,
0.4200336800,225,0x0E,
0.4200487000,226,0x07,
0.4200580800,226,0x0E,
0.4200731200,227,0x07,
0.4200825000,227,0x0E,
0.4200975200,228,0x07,
0.4201069000,228,0x0E,
0.4201219200,229,0x07,
0.4201313000,229,0x0E,
0.4201463400,230,0x07,
0.4201557200,230,0x0E,
0.4201707400,231,0x07,
0.4201801200,231,0x0E,
0.4201951600,232,0x07,
0.4202045400,232,0x0E,
0.4202195800,233,0x07,
0.4202289600,233,0x0E,
0.4202440000,234,0x07,
0.4202533800,234,0x0E,
0.4202684000,235,0x07,
0.4202777800,235,0x0E,
0.4202928000,236,0x07,
0.4203022000,236,0x0E,
0.4203172200,237,0x07,
0.4203266000,237,0x0E,
0.4203416400,238,0x07,
0.4203510000,238,0x0E,
0.4203660400,239,0x07,
0.4203754200,239,0x0E,
0.4203904600,240,0x07,
0.4203998400,240,0x0E,
0.4204148800,241,0x07,
0.4204242600,241,0x0E,
0.4204393000,242,0x07,
0.4204486800,242,0x0E,
0.4204637200,243,0x07,
0.4204731000,243,0x0E,
0.4204881400,244,0x07,
0.4204975200,244,0x0E,
0.4205125600,245,0x07,
0.4205219400,245,0x0E,
0.4205369800,246,0x07,
0.4205463600,246,0x0E,
0.4205614000,247,0x07,
0.4205707800,247,0x0E,
0.4205858000,248,0x07,
0.4205951800,248,0x0E,
0.4206102200,249,0x07,
0.4206196000,249,0x0E,
0.4206346400,250,0x07,
0.4206440200,250,0x0E,
0.4206590600,251,0x07,
0.4206684400,251,0x0E,
0.4206834800,252,0x07,
0.4206928600,252,0x0E,
0.4207079000,253,0x07,
0.4207173000,253,0x0E,
0.4207323200,254,0x07,
0.4207417000,254,0x0E,
0.4207567400,255,0x07,
0.4207661400,255,0x0E,
0.4207811600,256,0x07,
0.4207905400,256,0x0E,
0.4208055800,257,0x07,
0.4208149600,257,0x0E,
0.4208299800,258,0x07,
0.4208393600,258,0x0E,
0.4208544000,259,0x07,
0.4208637800,259,0x0E,
0.4208788000,260,0x07,
0.4208881800,260,0x0E,
0.4209032200,261,0x07,
0.4209126000,261,0x0E,
0.4209276400,262,0x07,
0.4209370200,262,0x0E,
0.4209520600,263,0x07,
0.4209614400,263,0x0E,
0.4209764800,264,0x07,
0.4209858600,264,0x0E,
0.4210009000,265,0x07,
0.4210102800,265,0x0E,
0.4210253400,266,0x07,
0.4210347200,266,0x0E,
0.4210497600,267,0x07,
0.4210591400,267,0x0E,
0.4210741800,268,0x07,
0.4210835600,268,0x0E,
0.4210986000,269,0x07,
0.4211079800,269,0x0E,
0.4211230200,270,0x07,
0.4211324200,270,0x0E,
0.4211474600,271,0x07,
0.4211568400,271,0x0E,
0.4211718800,272,0x07,
0.4211812600,272,0x0E,
0.4211963000,273,0x07,
0.4212056600,273,0x0E,
0.4212207000,274,0x07,
0.4212300800,274,0x0E,
0.4212451200,275,0x07,
0.4212545200,275,0x0E,
0.4212695400,276,0x07,
0.4212789400,276,0x0E,
0.4212939600,277,0x07,
0.4213033400,277,0x0E,
0.4213183800,278,0x07,
0.4213277600,278,0x0E,
0.4213428000,279,0x07,
0.4213521800,279,0x0E,
0.4213672200,280,0x07,
0.4213766000,280,0x0E,
0.4213916200,281,0x07,
0.4214010000,281,0x0E,
0.4214160400,282,0x07,
0.4214254200,282,0x0E,
0.4214404600,283,0x07,
0.4214498400,283,0x0E,
0.4214648600,284,0x07,
0.4214742400,284,0x0E,
0.4214892600,285,0x07,
0.4214986400,285,0x0E,
0.4215136800,286,0x07,
0.4215230600,286,0x0E,
0.4215380800,287,0x07,
0.4215474600,287,0x0E,
0.4215625000,288,0x07,
0.4215718800,288,0x0E,
0.4215869200,289,0x07,
0.4215963000,289,0x0E,
0.4216113400,290,0x07,
0.4216207200,290,0x0E,
0.4216357400,291,0x07,
0.4216451200,291,0x0E,
0.4216601600,292,0x07,
0.4216695400,292,0x0E,
0.4216845800,293,0x07,
0.4216939600,293,0x0E,
0.4217090000,294,0x07,
0.4217184000,294,0x0E,
0.4217334400,295,0x07,
0.4217428200,295,0x0E,
0.4217578600,296,0x07,
0.4217672400,296,0x0E,
0.4217822600,297,0x07,
0.4217916600,297,0x0E,
0.4218066800,298,0x07,
0.4218160600,298,0x0E,
0.4218311000,299,0x07,
0.4218404800,299,0x0E,
0.4218555200,300,0x07,
0.4218649000,300,0x0E,
0.4218799400,301,0x07,
0.4218893200,301,0x0E,
0.4219043600,302,0x07,
0.4219137400,302,0x0E,
0.4219288000,303,0x07,
0.4219381800,303,0x0E,
0.4219532200,304,0x07,
0.4219626000,304,0x0E,
0.4219776400,305,0x07,
0.4219870200,305,0x0E,
0.4220020600,306,0x07,
0.4220114400,306,0x0E,
0.4220264800,307,0x07,
0.4220358600,307,0x0E,
0.4220509000,308,0x07,
0.4220602800,308,0x0E,
0.4220753200,309,0x07,
0.4220847000,309,0x0E,
0.4220997200,310,0x07,
0.4221091000,310,0x0E,
0.4221241200,311,0x07,
0.4221335000,311,0x0E,
0.4221485400,312,0x07,
0.4221579200,312,0x0E,
0.4221729600,313,0x07,
0.4221823400,313,0x0E,
0.4221973600,314,0x07,
0.4222067400,314,0x0E,
0.4222217800,315,0x07,
0.4222311600,315,0x0E,
0.4222461800,316,0x07,
0.4222555600,316,0x0E,
0.4222706000,317,0x07,
0.4222799800,317,0x0E,
0.4222950200,318,0x07,
0.4223044000,318,0x0E,
0.4223194200,319,0x07,
0.4223288000,319,0x0E,
0.4223438400,320,0x07,
0.4223532200,320,0x0E,
0.4223682600,321,0x07,
0.4223776400,321,0x0E,
0.4223926600,322,0x07,
0.4224020400,322,0x0E,
0.4224170800,323,0x07,
0.4224264600,323,0x0E,
0.4224415000,324,0x07,
0.4224508800,324,0x0E,
0.4224659000,325,0x07,
0.4224752800,325,0x0E,
0.4224903200,326,0x07,
0.4224997000,326,0x0E,
0.4225147400,327,0x07,
0.4225241200,327,0x0E,
0.4225391400,328,0x07,
0.4225485200,328,0x0E,
0.4225635600,329,0x07,
0.4225729200,329,0x0E,
0.4225879600,330,0x07,
0.4225973400,330,0x0E,
0.4226123600,331,0x07,
0.4226217400,331,0x0E,
0.4226367800,332,0x07,
0.4226461400,332,0x0E,
0.4226611800,333,0x07,
0.4226705600,333,0x0E,
0.4226856000,334,0x07,
0.4226949800,334,0x0E,
0.4227100200,335,0x07,
0.4227194000,335,0x0E,
0.4227344400,336,0x07,
0.4227438200,336,0x0E,
0.4227588600,337,0x07,
0.4227682400,337,0x0E,
0.4227832600,338,0x07,
0.4227926400,338,0x0E,
0.4228076800,339,0x07,
0.4228170600,339,0x0E,
0.4228321000,340,0x07,
0.4228414800,340,0x0E,
0.4228565200,341,0x07,
0.4228659000,341,0x0E,
0.4228809400,342,0x07,
0.4228903200,342,0x0E,
0.4229053600,343,0x07,
0.4229147400,343,0x0E,
0.4229297800,344,0x07,
0.4229391600,344,0x0E,
0.4229542000,345,0x07,
0.4229635800,345,0x0E,
0.4229786200,346,0x07,
0.4229880000,346,0x0E,
0.4230030400,347,0x07,
0.4230124200,347,0x0E,
0.4230274600,348,0x07,
0.4230368400,348,0x0E,
0.4230518800,349,0x07,
0.4230612600,349,0x0E,
0.4230763000,350,0x07,
0.4230856800,350,0x0E,
0.4231007200,351,0x07,
0.4231101200,351,0x0E,
0.4231251400,352,0x07,
0.4231345400,352,0x0E,
0.4231495800,353,0x07,
0.4231589600,353,0x0E,
0.4231740000,354,0x07,
0.4231833800,354,0x0E,
0.4231984000,355,0x07,
0.4232077800,355,0x0E,
0.4232228200,356,0x07,
0.4232322000,356,0x0E,
0.4232472200,357,0x07,
0.4232566000,357,0x0E,
0.4232716400,358,0x07,
0.4232810200,358,0x0E,
0.4232960600,359,0x07,
0.4233054400,359,0x0E,
0.4233204800,360,0x07,
0.4233298600,360,0x0E,
0.4233449000,361,0x07,
0.4233542800,361,0x0E,
0.4233693200,362,0x07,
0.4233787000,362,0x0E,
0.4233937400,363,0x07,
0.4234031200,363,0x0E,
0.4234181400,364,0x07,
0.4234275200,364,0x0E,
0.4234425600,365,0x07,
0.4234519400,365,0x0E,
0.4234669800,366,0x07,
0.4234763600,366,0x0E,
0.4234914000,367,0x07,
0.4235008000,367,0x0E,
0.4235158400,368,0x07,
0.4235252200,368,0x0E,
0.4235402600,369,0x07,
0.4235496400,369,0x0E,
0.4235646800,370,0x07,
0.4235740600,370,0x0E,
0.4235890800,371,0x07,
0.4235984800,371,0x0E,
0.4236135000,372,0x07,
0.4236228800,372,0x0E,
0.4236379200,373,0x07,
0.4236473000,373,0x0E,
0.4236623600,374,0x07,
0.4236717400,374,0x0E,
0.4236867800,375,0x07,
0.4236961600,375,0x0E,
0.4237112000,376,0x07,
0.4237206000,376,0x0E,
0.4237356400,377,0x07,
0.4237450400,377,0x0E,
0.4237600800,378,0x07,
0.4237694600,378,0x0E,
0.4237845200,379,0x07,
0.4237939000,379,0x0E,
0.4238089400,380,0x07,
0.4238183200,380,0x0E,
0.4238333600,381,0x07,
0.4238427600,381,0x0E,
0.4238578000,382,0x07,
0.4238671800,382,0x0E,
0.4238827800,383,0x07,
0.4238921600,383,0x0E,
0.4239071800,384,0x07,
0.4239165600,384,0x0E,
0.4239316000,385,0x07,
0.4239409800,385,0x0E,
0.4239560200,386,0x07,
0.4239654000,386,0x0E,
0.4239804200,387,0x07,
0.4239898000,387,0x0E,
0.4240048400,388,0x07,
0.4240142200,388,0x0E,
0.4240292600,389,0x07,
0.4240386400,389,0x0E,
0.4240536800,390,0x07,
0.4240630600,390,0x0E,
0.4240781200,391,0x07,
0.4240875000,391,0x0E,
0.4241025400,392,0x07,
0.4241119200,392,0x0E,
0.4241269600,393,0x07,
0.4241363400,393,0x0E,
0.4241514000,394,0x07,
0.4241607800,394,0x0E,
0.4241758000,395,0x07,
0.4241851800,395,0x0E,
0.4242002200,396,0x07,
0.4242096200,396,0x0E,
0.4242246600,397,0x07,
0.4242340400,397,0x0E,
0.4242490600,398,0x07,
0.4242584400,398,0x0E,
0.4242734800,399,0x07,
0.4242828600,399,0x0E,
0.4242979000,400,0x07,
0.4243072800,400,0x0E,
0.4243223200,401,0x07,
0.4243317000,401,0x0E,
0.4243467400,402,0x07,
0.4243561200,402,0x0E,
0.4243711600,403,0x07,
0.4243805400,403,0x0E,
0.4243955800,404,0x07,
0.4244049600,404,0x0E,
0.4244200200,405,0x07,
0.4244294000,405,0x0E,
0.4244444400,406,0x07,
0.4244538400,406,0x0E,
0.4244688800,407,0x07,
0.4244782600,407,0x0E,
0.4244933200,408,0x07,
0.4245027000,408,0x0E,
0.4245177400,409,0x07,
0.4245271200,409,0x0E,
0.4245421600,410,0x07,
0.4245515400,410,0x0E,
0.4245665800,411,0x07,
0.4245759600,411,0x0E,
0.4245910000,412,0x07,
0.4246003800,412,0x0E,
0.4246154200,413,0x07,
0.4246248000,413,0x0E,
0.4246398400,414,0x07,
0.4246492200,414,0x0E,
0.4246642400,415,0x07,
0.4246736200,415,0x0E,
0.4246886600,416,0x07,
0.4246980400,416,0x0E,
0.4247130800,417,0x07,
0.4247224600,417,0x0E,
0.4247375000,418,0x07,
0.4247468800,418,0x0E,
0.4247619000,419,0x07,
0.4247713000,419,0x0E,
0.4247863200,420,0x07,
0.4247957000,420,0x0E,
0.4248107400,421,0x07,
0.4248201200,421,0x0E,
0.4248351600,422,0x07,
0.4248445600,422,0x0E,
0.4248596000,423,0x07,
0.4248689800,423,0x0E,
0.4248840200,424,0x07,
0.4248934000,424,0x0E,
0.4249084200,425,0x07,
0.4249178000,425,0x0E,
0.4249328400,426,0x07,
0.4249422200,426,0x0E,
0.4249572600,427,0x07,
0.4249666400,427,0x0E,
0.4249816800,428,0x07,
